EMTDC_Simulation , 2,1999
 6, 6A, 0D
 1, IA: A1,A,A1,kA,0.111475E-03,-.231104    , 0.0,     0,  4096,     1.000000,1,S
 2, IB: A2,A,A2,kA,0.111863E-03,-.222985    , 0.0,     0,  4096,     1.000000,1,S
 3, IC: A3,A,A3,kA,0.110473E-03,-.229887    , 0.0,     0,  4096,     1.000000,1,S
 4, UA: A4,A,A4,kV,0.829942E-01,-169.806    , 0.0,     0,  4096,     1.000000,1,S
 5, UB: A5,A,A5,kV,0.821446E-01,-170.165    , 0.0,     0,  4096,     1.000000,1,S
 6, UC: A6,A,A6,kV,0.827032E-01,-168.667    , 0.0,     0,  4096,     1.000000,1,S
50
1
20000,     36000
27/02/2024,23:44:27.000000    
27/02/2024,23:44:27.000000    
ASCII
1
         1,         0,  1104,  1012,  4023,  1967,   348,  3828
         2,       250,  1246,   882,  4012,  2125,   269,  3750
         3,       500,  1393,   759,  3988,  2283,   201,  3660
         4,       750,  1545,   644,  3953,  2439,   144,  3561
         5,      1000,  1699,   539,  3905,  2593,    99,  3453
         6,      1250,  1855,   442,  3846,  2743,    66,  3336
         7,      1500,  2013,   356,  3775,  2889,    45,  3211
         8,      1750,  2171,   280,  3694,  3030,    36,  3078
         9,      2000,  2328,   215,  3602,  3165,    40,  2940
        10,      2250,  2484,   162,  3501,  3293,    56,  2795
        11,      2500,  2637,   120,  3391,  3414,    85,  2647
        12,      2750,  2786,    91,  3272,  3526,   125,  2494
        13,      3000,  2931,    73,  3145,  3629,   178,  2339
        14,      3250,  3070,    68,  3012,  3722,   242,  2182
        15,      3500,  3203,    75,  2872,  3805,   317,  2024
        16,      3750,  3329,    95,  2727,  3877,   403,  1866
        17,      4000,  3448,   127,  2578,  3938,   499,  1709
        18,      4250,  3557,   170,  2426,  3987,   604,  1554
        19,      4500,  3657,   226,  2270,  4024,   719,  1403
        20,      4750,  3748,   293,  2114,  4049,   841,  1255
        21,      5000,  3828,   370,  1956,  4062,   972,  1112
        22,      5250,  3897,   459,  1800,  4062,  1108,   975
        23,      5500,  3954,   557,  1644,  4050,  1251,   844
        24,      5750,  4000,   665,  1491,  4026,  1399,   721
        25,      6000,  4034,   781,  1341,  3989,  1550,   606
        26,      6250,  4056,   905,  1195,  3940,  1705,   500
        27,      6500,  4065,  1036,  1055,  3880,  1862,   404
        28,      6750,  4062,  1174,   920,  3808,  2020,   317
        29,      7000,  4046,  1318,   792,  3726,  2178,   241
        30,      7250,  4018,  1466,   672,  3633,  2335,   177
        31,      7500,  3978,  1617,   560,  3530,  2491,   124
        32,      7750,  3926,  1772,   457,  3419,  2644,    83
        33,      8000,  3863,  1928,   364,  3298,  2793,    53
        34,      8250,  3788,  2086,   281,  3170,  2938,    37
        35,      8500,  3702,  2243,   208,  3035,  3077,    32
        36,      8750,  3607,  2399,   147,  2894,  3210,    40
        37,      9000,  3502,  2553,    98,  2748,  3336,    60
        38,      9250,  3387,  2704,    60,  2597,  3454,    93
        39,      9500,  3265,  2852,    34,  2443,  3563,   138
        40,      9750,  3135,  2994,    21,  2287,  3663,   194
        41,     10000,  2998,  3131,    20,  2129,  3753,   262
        42,     10250,  2856,  3262,    32,  1970,  3832,   341
        43,     10500,  2708,  3385,    55,  1812,  3901,   431
        44,     10750,  2556,  3499,    91,  1656,  3958,   530
        45,     11000,  2401,  3606,   139,  1501,  4003,   639
        46,     11250,  2244,  3702,   199,  1351,  4036,   757
        47,     11500,  2086,  3789,   269,  1204,  4057,   882
        48,     11750,  1928,  3865,   351,  1063,  4066,  1015
        49,     12000,  1770,  3930,   443,   927,  4062,  1154
        50,     12250,  1614,  3983,   544,   799,  4046,  1299
        51,     12500,  1461,  4025,   655,   678,  4017,  1448
        52,     12750,  1311,  4055,   774,   566,  3976,  1601
        53,     13000,  1166,  4072,   901,   462,  3924,  1757
        54,     13250,  1026,  4077,  1035,   369,  3860,  1915
        55,     13500,   892,  4070,  1176,   286,  3784,  2073
        56,     13750,   766,  4050,  1321,   213,  3698,  2231
        57,     14000,   647,  4018,  1471,   152,  3602,  2389
        58,     14250,   537,  3974,  1624,   103,  3496,  2544
        59,     14500,   437,  3919,  1779,    66,  3381,  2696
        60,     14750,   346,  3852,  1937,    41,  3258,  2844
        61,     15000,   266,  3773,  2094,    28,  3127,  2987
        62,     15250,   197,  3685,  2252,    28,  2990,  3125
        63,     15500,   139,  3586,  2408,    40,  2847,  3256
        64,     15750,    93,  3478,  2561,    64,  2699,  3379
        65,     16000,    59,  3362,  2712,   101,  2547,  3495
        66,     16250,    38,  3237,  2858,   150,  2392,  3601
        67,     16500,    28,  3105,  2999,   211,  2234,  3698
        68,     16750,    32,  2967,  3134,   282,  2076,  3784
        69,     17000,    47,  2823,  3262,   365,  1917,  3860
        70,     17250,    75,  2675,  3383,   458,  1759,  3925
        71,     17500,   115,  2523,  3495,   561,  1603,  3978
        72,     17750,   168,  2368,  3598,   673,  1450,  4020
        73,     18000,   231,  2211,  3692,   794,  1300,  4049
        74,     18250,   306,  2053,  3775,   922,  1155,  4066
        75,     18500,   392,  1895,  3848,  1058,  1015,  4070
        76,     18750,   488,  1738,  3909,  1199,   882,  4062
        77,     19000,   593,  1584,  3959,  1346,   756,  4042
        78,     19250,   708,  1432,  3996,  1497,   638,  4009
        79,     19500,   831,  1284,  4022,  1651,   528,  3964
        80,     19750,   961,  1141,  4035,  1808,   428,  3907
        81,     20000,  1098,  1004,  4036,  1967,   338,  3839
        82,     20250,  1241,   874,  4025,  2126,   258,  3760
        83,     20500,  1389,   750,  4001,  2284,   190,  3670
        84,     20750,  1541,   635,  3965,  2441,   132,  3571
        85,     21000,  1697,   529,  3917,  2596,    87,  3461
        86,     21250,  1854,   432,  3858,  2747,    54,  3343
        87,     21500,  2013,   345,  3787,  2894,    33,  3218
        88,     21750,  2172,   269,  3705,  3036,    24,  3084
        89,     22000,  2330,   203,  3613,  3172,    28,  2945
        90,     22250,  2486,   150,  3511,  3301,    44,  2800
        91,     22500,  2640,   108,  3400,  3422,    73,  2650
        92,     22750,  2790,    78,  3280,  3534,   114,  2497
        93,     23000,  2936,    61,  3153,  3638,   167,  2340
        94,     23250,  3076,    56,  3019,  3731,   231,  2182
        95,     23500,  3210,    63,  2878,  3815,   307,  2023
        96,     23750,  3336,    83,  2733,  3887,   393,  1865
        97,     24000,  3455,   115,  2583,  3948,   490,  1707
        98,     24250,  3565,   159,  2429,  3998,   596,  1551
        99,     24500,  3666,   215,  2273,  4035,   711,  1399
       100,     24750,  3757,   282,  2116,  4060,   835,  1250
       101,     25000,  3837,   360,  1957,  4073,   966,  1107
       102,     25250,  3907,   449,  1800,  4073,  1103,   969
       103,     25500,  3964,   548,  1643,  4061,  1247,   838
       104,     25750,  4010,   656,  1489,  4036,  1395,   714
       105,     26000,  4044,   773,  1339,  3999,  1547,   598
       106,     26250,  4066,   898,  1192,  3951,  1703,   492
       107,     26500,  4075,  1030,  1051,  3890,  1861,   395
       108,     26750,  4072,  1168,   916,  3818,  2020,   308
       109,     27000,  4056,  1312,   787,  3735,  2179,   232
       110,     27250,  4028,  1461,   666,  3641,  2337,   167
       111,     27500,  3988,  1614,   554,  3538,  2493,   114
       112,     27750,  3936,  1769,   450,  3426,  2647,    72
       113,     28000,  3872,  1926,   357,  3305,  2797,    43
       114,     28250,  3797,  2084,   273,  3176,  2943,    26
       115,     28500,  3711,  2242,   200,  3040,  3083,    22
       116,     28750,  3615,  2399,   139,  2899,  3216,    30
       117,     29000,  3509,  2554,    89,  2752,  3343,    50
       118,     29250,  3394,  2706,    52,  2600,  3461,    83
       119,     29500,  3271,  2854,    26,  2445,  3571,   128
       120,     29750,  3140,  2998,    13,  2288,  3671,   185
       121,     30000,  3003,  3135,    12,  2129,  3762,   253
       122,     30250,  2859,  3266,    23,  1970,  3841,   333
       123,     30500,  2711,  3390,    47,  1811,  3910,   423
       124,     30750,  2559,  3505,    83,  1654,  3967,   523
       125,     31000,  2403,  3612,   131,  1499,  4013,   632
       126,     31250,  2245,  3709,   191,  1347,  4046,   750
       127,     31500,  2086,  3796,   262,  1200,  4067,   876
       128,     31750,  1927,  3872,   344,  1058,  4076,  1010
       129,     32000,  1769,  3937,   436,   922,  4072,  1150
       130,     32250,  1612,  3991,   539,   793,  4055,  1295
       131,     32500,  1458,  4033,   650,   671,  4027,  1445
       132,     32750,  1307,  4063,   770,   559,  3986,  1599
       133,     33000,  1161,  4080,   897,   455,  3933,  1755
       134,     33250,  1021,  4085,  1032,   361,  3868,  1914
       135,     33500,   887,  4078,  1173,   277,  3792,  2073
       136,     33750,   760,  4058,  1319,   205,  3706,  2232
       137,     34000,   641,  4026,  1469,   144,  3609,  2390
       138,     34250,   531,  3982,  1623,    94,  3502,  2546
       139,     34500,   430,  3926,  1779,    57,  3387,  2699
       140,     34750,   339,  3858,  1937,    32,  3263,  2848
       141,     35000,   258,  3780,  2096,    19,  3132,  2992
       142,     35250,   189,  3691,  2254,    19,  2994,  3130
       143,     35500,   131,  3592,  2410,    31,  2851,  3261
       144,     35750,    85,  3483,  2565,    56,  2702,  3385
       145,     36000,    51,  3366,  2716,    93,  2549,  3501
       146,     36250,    29,  3241,  2863,   142,  2393,  3608
       147,     36500,    20,  3109,  3004,   203,  2235,  3705
       148,     36750,    23,  2970,  3140,   275,  2076,  3792
       149,     37000,    39,  2825,  3269,   358,  1917,  3868
       150,     37250,    67,  2676,  3390,   451,  1758,  3933
       151,     37500,   107,  2523,  3502,   555,  1601,  3987
       152,     37750,   160,  2368,  3606,   668,  1447,  4028
       153,     38000,   224,  2210,  3700,   789,  1297,  4057
       154,     38250,   299,  2052,  3784,   918,  1151,  4074
       155,     38500,   385,  1893,  3856,  1054,  1011,  4079
       156,     38750,   481,  1736,  3918,  1196,   877,  4071
       157,     39000,   587,  1581,  3968,  1343,   750,  4050
       158,     39250,   702,  1429,  4006,  1495,   632,  4017
       159,     39500,   826,  1280,  4031,  1650,   522,  3972
       160,     39750,   957,  1137,  4045,  1807,   421,  3915
       161,     40000,  1094,   999,  4046,  1966,   331,  3847
       162,     40250,  1238,   868,  4034,  2126,   251,  3767
       163,     40500,  1387,   744,  4010,  2285,   182,  3677
       164,     40750,  1539,   628,  3974,  2443,   125,  3577
       165,     41000,  1695,   521,  3926,  2598,    79,  3467
       166,     41250,  1853,   424,  3866,  2750,    46,  3349
       167,     41500,  2012,   337,  3795,  2898,    25,  3222
       168,     41750,  2172,   261,  3713,  3040,    16,  3089
       169,     42000,  2331,   195,  3620,  3176,    20,  2948
       170,     42250,  2488,   141,  3518,  3305,    37,  2803
       171,     42500,  2642,    99,  3406,  3427,    65,  2652
       172,     42750,  2793,    70,  3286,  3540,   107,  2498
       173,     43000,  2939,    52,  3159,  3644,   160,  2342
       174,     43250,  3080,    47,  3024,  3738,   224,  2183
       175,     43500,  3214,    55,  2883,  3822,   300,  2023
       176,     43750,  3341,    74,  2737,  3894,   387,  1864
       177,     44000,  3460,   106,  2586,  3956,   484,  1706
       178,     44250,  3571,   151,  2432,  4005,   591,  1550
       179,     44500,  3672,   207,  2275,  4043,   706,  1396
       180,     44750,  3763,   274,  2117,  4068,   830,  1247
       181,     45000,  3844,   353,  1958,  4081,   962,  1103
       182,     45250,  3913,   442,  1800,  4081,  1100,   965
       183,     45500,  3971,   541,  1643,  4068,  1244,   833
       184,     45750,  4017,   650,  1489,  4044,  1393,   709
       185,     46000,  4051,   767,  1338,  4007,  1546,   593
       186,     46250,  4073,   892,  1191,  3957,  1702,   486
       187,     46500,  4082,  1025,  1049,  3896,  1860,   389
       188,     46750,  4079,  1164,   913,  3824,  2019,   302
       189,     47000,  4063,  1309,   784,  3741,  2179,   225
       190,     47250,  4035,  1458,   663,  3647,  2338,   160
       191,     47500,  3995,  1611,   550,  3543,  2495,   107
       192,     47750,  3942,  1767,   446,  3431,  2649,    65
       193,     48000,  3878,  1925,   352,  3309,  2800,    36
       194,     48250,  3803,  2083,   268,  3180,  2946,    19
       195,     48500,  3716,  2242,   196,  3044,  3086,    15
       196,     48750,  3620,  2399,   134,  2902,  3220,    23
       197,     49000,  3514,  2555,    84,  2754,  3347,    43
       198,     49250,  3398,  2707,    46,  2602,  3466,    76
       199,     49500,  3275,  2856,    20,  2447,  3576,   122
       200,     49750,  3144,  3000,     7,  2289,  3677,   179
       201,     50000,  3006,  3137,     6,  2130,  3767,   247
       202,     50250,  2862,  3269,    18,  1970,  3847,   327
       203,     50500,  2713,  3393,    42,  1810,  3916,   417
       204,     50750,  2560,  3509,    78,  1652,  3974,   518
       205,     51000,  2404,  3615,   126,  1497,  4019,   627
       206,     51250,  2246,  3713,   186,  1345,  4053,   746
       207,     51500,  2087,  3800,   258,  1197,  4074,   873
       208,     51750,  1927,  3877,   340,  1055,  4082,  1006
       209,     52000,  1768,  3942,   433,   918,  4078,  1147
       210,     52250,  1611,  3996,   535,   789,  4062,  1293
       211,     52500,  1456,  4038,   647,   667,  4033,  1443
       212,     52750,  1305,  4068,   767,   554,  3992,  1597
       213,     53000,  1159,  4085,   895,   450,  3939,  1755
       214,     53250,  1018,  4090,  1030,   356,  3874,  1913
       215,     53500,   883,  4083,  1171,   272,  3798,  2073
       216,     53750,   756,  4063,  1318,   199,  3711,  2233
       217,     54000,   637,  4031,  1469,   138,  3614,  2391
       218,     54250,   526,  3986,  1623,    88,  3507,  2548
       219,     54500,   425,  3930,  1780,    51,  3391,  2701
       220,     54750,   334,  3863,  1938,    25,  3267,  2850
       221,     55000,   253,  3784,  2097,    13,  3135,  2995
       222,     55250,   183,  3695,  2256,    12,  2997,  3133
       223,     55500,   125,  3595,  2413,    25,  2853,  3265
       224,     55750,    79,  3487,  2567,    50,  2704,  3389
       225,     56000,    45,  3369,  2719,    87,  2551,  3505
       226,     56250,    23,  3243,  2866,   136,  2394,  3612
       227,     56500,    14,  3111,  3008,   197,  2236,  3710
       228,     56750,    17,  2971,  3144,   270,  2076,  3797
       229,     57000,    33,  2827,  3273,   353,  1916,  3874
       230,     57250,    61,  2677,  3395,   447,  1757,  3939
       231,     57500,   102,  2524,  3508,   551,  1600,  3992
       232,     57750,   154,  2368,  3612,   664,  1446,  4034
       233,     58000,   218,  2210,  3706,   785,  1295,  4063
       234,     58250,   294,  2051,  3790,   914,  1149,  4080
       235,     58500,   380,  1892,  3863,  1051,  1008,  4084
       236,     58750,   477,  1734,  3924,  1193,   874,  4076
       237,     59000,   583,  1578,  3974,  1341,   747,  4056
       238,     59250,   699,  1426,  4012,  1493,   628,  4023
       239,     59500,   822,  1277,  4038,  1649,   518,  3977
       240,     59750,   954,  1133,  4051,  1807,   417,  3920
       241,     60000,  1092,   995,  4052,  1966,   326,  3852
       242,     60250,  1236,   863,  4041,  2126,   246,  3772
       243,     60500,  1385,   739,  4017,  2286,   177,  3681
       244,     60750,  1538,   623,  3980,  2444,   119,  3581
       245,     61000,  1694,   516,  3932,  2600,    74,  3471
       246,     61250,  1852,   419,  3872,  2752,    40,  3352
       247,     61500,  2012,   331,  3801,  2900,    19,  3225
       248,     61750,  2172,   255,  3718,  3043,    11,  3091
       249,     62000,  2331,   189,  3626,  3179,    15,  2951
       250,     62250,  2489,   135,  3523,  3309,    31,  2805
       251,     62500,  2643,    93,  3411,  3431,    60,  2654
       252,     62750,  2794,    64,  3291,  3544,   102,  2500
       253,     63000,  2941,    46,  3163,  3648,   155,  2342
       254,     63250,  3082,    41,  3027,  3742,   220,  2183
       255,     63500,  3217,    48,  2886,  3826,   296,  2023
       256,     63750,  3344,    68,  2740,  3899,   383,  1863
       257,     64000,  3464,   101,  2589,  3960,   480,  1705
       258,     64250,  3574,   145,  2434,  4010,   587,  1548
       259,     64500,  3676,   201,  2277,  4048,   703,  1395
       260,     64750,  3767,   269,  2119,  4073,   827,  1245
       261,     65000,  3848,   347,  1960,  4086,   959,  1101
       262,     65250,  3917,   437,  1801,  4086,  1097,   962
       263,     65500,  3976,   536,  1644,  4073,  1242,   830
       264,     65750,  4022,   645,  1489,  4049,  1391,   706
       265,     66000,  4056,   763,  1337,  4011,  1544,   590
       266,     66250,  4078,   888,  1190,  3962,  1701,   482
       267,     66500,  4087,  1021,  1048,  3901,  1860,   385
       268,     66750,  4084,  1161,   912,  3828,  2019,   297
       269,     67000,  4068,  1306,   782,  3745,  2179,   221
       270,     67250,  4040,  1455,   661,  3651,  2339,   156
       271,     67500,  3999,  1609,   548,  3547,  2496,   102
       272,     67750,  3946,  1765,   444,  3434,  2651,    61
       273,     68000,  3882,  1923,   350,  3312,  2802,    31
       274,     68250,  3807,  2082,   266,  3183,  2948,    14
       275,     68500,  3720,  2241,   193,  3046,  3089,    10
       276,     68750,  3623,  2399,   131,  2904,  3223,    18
       277,     69000,  3517,  2555,    81,  2756,  3350,    39
       278,     69250,  3401,  2708,    43,  2603,  3469,    72
       279,     69500,  3278,  2856,    17,  2448,  3579,   117
       280,     69750,  3146,  3000,     4,  2289,  3680,   174
       281,     70000,  3008,  3139,     3,  2130,  3771,   243
       282,     70250,  2864,  3270,    15,  1970,  3851,   323
       283,     70500,  2715,  3395,    39,  1810,  3920,   414
       284,     70750,  2561,  3511,    75,  1652,  3978,   514
       285,     71000,  2405,  3618,   123,  1496,  4024,   624
       286,     71250,  2246,  3715,   184,  1343,  4057,   743
       287,     71500,  2087,  3803,   255,  1195,  4078,   870
       288,     71750,  1927,  3879,   337,  1052,  4087,  1004
       289,     72000,  1767,  3945,   430,   916,  4083,  1145
       290,     72250,  1610,  3999,   533,   786,  4066,  1291
       291,     72500,  1455,  4041,   645,   664,  4037,  1442
       292,     72750,  1304,  4071,   766,   551,  3996,  1596
       293,     73000,  1157,  4088,   894,   446,  3943,  1754
       294,     73250,  1016,  4093,  1029,   352,  3878,  1913
       295,     73500,   881,  4086,  1171,   268,  3801,  2073
       296,     73750,   753,  4066,  1317,   195,  3714,  2233
       297,     74000,   634,  4033,  1469,   134,  3617,  2392
       298,     74250,   523,  3989,  1623,    84,  3510,  2549
       299,     74500,   422,  3933,  1780,    47,  3394,  2702
       300,     74750,   330,  3865,  1939,    21,  3270,  2852
       301,     75000,   249,  3786,  2098,     9,  3138,  2996
       302,     75250,   180,  3697,  2257,     8,  2999,  3135
