EMTDC_Simulation , 2,1999
 6, 6A, 0D
 1, IA: A1,A,A1,kA,0.111475E-03,-.231104    , 0.0,     0,  4096,     1.000000,1,S
 2, IB: A2,A,A2,kA,0.111863E-03,-.222985    , 0.0,     0,  4096,     1.000000,1,S
 3, IC: A3,A,A3,kA,0.110473E-03,-.229887    , 0.0,     0,  4096,     1.000000,1,S
 4, UA: A4,A,A4,kV,0.829942E-01,-169.806    , 0.0,     0,  4096,     1.000000,1,S
 5, UB: A5,A,A5,kV,0.821446E-01,-170.165    , 0.0,     0,  4096,     1.000000,1,S
 6, UC: A6,A,A6,kV,0.827032E-01,-168.667    , 0.0,     0,  4096,     1.000000,1,S
50
1
20000,     36000
27/02/2024,23:44:27.000000    
27/02/2024,23:44:27.000000    
ASCII
1
         1,         0,  1020,  1112,  4036,  1867,   474,  3806
         2,        50,  1046,  1085,  4037,  1897,   456,  3793
         3,       100,  1072,  1058,  4038,  1927,   439,  3780
         4,       150,  1099,  1031,  4038,  1958,   422,  3766
         5,       200,  1126,  1005,  4038,  1988,   406,  3752
         6,       250,  1153,   979,  4037,  2019,   390,  3737
         7,       300,  1180,   953,  4036,  2049,   374,  3722
         8,       350,  1208,   927,  4034,  2079,   359,  3707
         9,       400,  1235,   902,  4032,  2110,   345,  3691
        10,       450,  1263,   876,  4029,  2140,   330,  3674
        11,       500,  1291,   852,  4026,  2171,   316,  3658
        12,       550,  1320,   827,  4022,  2201,   303,  3641
        13,       600,  1348,   803,  4018,  2231,   290,  3623
        14,       650,  1377,   779,  4013,  2262,   277,  3605
        15,       700,  1406,   755,  4008,  2292,   265,  3587
        16,       750,  1435,   732,  4003,  2322,   253,  3568
        17,       800,  1464,   709,  3997,  2352,   242,  3549
        18,       850,  1493,   686,  3990,  2382,   231,  3530
        19,       900,  1523,   664,  3983,  2412,   221,  3510
        20,       950,  1552,   642,  3975,  2442,   211,  3490
        21,      1000,  1582,   620,  3967,  2472,   202,  3469
        22,      1050,  1612,   598,  3959,  2501,   193,  3448
        23,      1100,  1642,   577,  3950,  2531,   184,  3427
        24,      1150,  1672,   557,  3940,  2560,   176,  3406
        25,      1200,  1702,   536,  3931,  2590,   169,  3384
        26,      1250,  1733,   516,  3920,  2619,   162,  3362
        27,      1300,  1763,   497,  3909,  2648,   155,  3339
        28,      1350,  1793,   478,  3898,  2677,   149,  3316
        29,      1400,  1824,   459,  3886,  2705,   143,  3293
        30,      1450,  1854,   440,  3874,  2734,   138,  3269
        31,      1500,  1885,   422,  3862,  2762,   133,  3246
        32,      1550,  1916,   405,  3849,  2791,   129,  3222
        33,      1600,  1946,   387,  3835,  2819,   125,  3197
        34,      1650,  1977,   370,  3821,  2846,   122,  3172
        35,      1700,  2008,   354,  3807,  2874,   119,  3148
        36,      1750,  2039,   338,  3792,  2901,   117,  3122
        37,      1800,  2070,   322,  3777,  2929,   115,  3097
        38,      1850,  2100,   307,  3761,  2956,   114,  3071
        39,      1900,  2131,   292,  3745,  2982,   113,  3045
        40,      1950,  2162,   278,  3728,  3009,   113,  3019
        41,      2000,  2193,   264,  3712,  3035,   113,  2992
        42,      2050,  2224,   250,  3694,  3061,   113,  2965
        43,      2100,  2254,   237,  3676,  3087,   114,  2939
        44,      2150,  2285,   225,  3658,  3113,   116,  2911
        45,      2200,  2315,   212,  3640,  3138,   118,  2884
        46,      2250,  2346,   201,  3621,  3163,   120,  2856
        47,      2300,  2377,   189,  3602,  3188,   123,  2828
        48,      2350,  2407,   178,  3582,  3212,   127,  2800
        49,      2400,  2437,   168,  3562,  3237,   131,  2772
        50,      2450,  2468,   158,  3541,  3261,   135,  2744
        51,      2500,  2498,   148,  3521,  3284,   140,  2715
        52,      2550,  2528,   139,  3500,  3307,   145,  2687
        53,      2600,  2558,   131,  3478,  3330,   151,  2658
        54,      2650,  2587,   123,  3456,  3353,   158,  2629
        55,      2700,  2617,   115,  3434,  3376,   164,  2599
        56,      2750,  2647,   108,  3411,  3398,   172,  2570
        57,      2800,  2676,   101,  3389,  3419,   179,  2541
        58,      2850,  2705,    95,  3365,  3441,   188,  2511
        59,      2900,  2734,    89,  3342,  3462,   196,  2481
        60,      2950,  2763,    84,  3318,  3482,   206,  2452
        61,      3000,  2792,    79,  3294,  3503,   215,  2422
        62,      3050,  2821,    75,  3269,  3523,   225,  2392
        63,      3100,  2849,    71,  3245,  3542,   236,  2361
        64,      3150,  2877,    67,  3220,  3561,   247,  2331
        65,      3200,  2906,    64,  3194,  3580,   258,  2301
        66,      3250,  2933,    62,  3169,  3599,   270,  2271
        67,      3300,  2961,    60,  3143,  3617,   282,  2240
        68,      3350,  2988,    59,  3117,  3634,   295,  2210
        69,      3400,  3016,    58,  3090,  3652,   308,  2179
        70,      3450,  3042,    57,  3064,  3669,   322,  2149
        71,      3500,  3069,    57,  3037,  3685,   336,  2118
        72,      3550,  3096,    57,  3009,  3701,   350,  2088
        73,      3600,  3122,    58,  2982,  3717,   365,  2057
        74,      3650,  3148,    60,  2954,  3732,   381,  2027
        75,      3700,  3174,    62,  2927,  3747,   396,  1996
        76,      3750,  3199,    64,  2898,  3762,   413,  1966
        77,      3800,  3224,    67,  2870,  3776,   429,  1935
        78,      3850,  3249,    70,  2842,  3789,   446,  1904
        79,      3900,  3274,    74,  2813,  3802,   463,  1874
        80,      3950,  3298,    78,  2784,  3815,   481,  1844
        81,      4000,  3322,    83,  2755,  3827,   499,  1813
        82,      4050,  3345,    88,  2726,  3839,   518,  1783
        83,      4100,  3369,    94,  2697,  3851,   537,  1753
        84,      4150,  3392,   100,  2667,  3862,   556,  1722
        85,      4200,  3415,   107,  2637,  3872,   576,  1692
        86,      4250,  3437,   114,  2608,  3882,   596,  1662
        87,      4300,  3459,   122,  2578,  3892,   616,  1632
        88,      4350,  3481,   130,  2548,  3901,   637,  1602
        89,      4400,  3502,   138,  2517,  3910,   658,  1573
        90,      4450,  3523,   148,  2487,  3918,   680,  1543
        91,      4500,  3544,   157,  2457,  3926,   702,  1513
        92,      4550,  3564,   167,  2426,  3933,   724,  1484
        93,      4600,  3584,   177,  2395,  3940,   746,  1455
        94,      4650,  3603,   188,  2365,  3947,   769,  1426
        95,      4700,  3623,   199,  2334,  3952,   792,  1397
        96,      4750,  3641,   211,  2303,  3958,   816,  1368
        97,      4800,  3660,   223,  2272,  3963,   840,  1339
        98,      4850,  3678,   236,  2241,  3967,   864,  1311
        99,      4900,  3695,   249,  2210,  3971,   888,  1283
       100,      4950,  3713,   263,  2179,  3975,   913,  1254
       101,      5000,  3729,   276,  2148,  3978,   938,  1227
       102,      5050,  3746,   291,  2117,  3981,   963,  1199
       103,      5100,  3762,   306,  2086,  3983,   989,  1171
       104,      5150,  3777,   321,  2055,  3985,  1014,  1144
       105,      5200,  3793,   336,  2024,  3986,  1040,  1117
       106,      5250,  3807,   352,  1993,  3986,  1067,  1090
       107,      5300,  3822,   369,  1961,  3987,  1093,  1064
       108,      5350,  3836,   386,  1930,  3986,  1120,  1037
       109,      5400,  3849,   403,  1899,  3986,  1147,  1011
       110,      5450,  3862,   421,  1868,  3984,  1174,   985
       111,      5500,  3875,   439,  1837,  3983,  1202,   960
       112,      5550,  3887,   457,  1807,  3981,  1230,   934
       113,      5600,  3898,   476,  1776,  3978,  1258,   909
       114,      5650,  3910,   495,  1745,  3975,  1286,   884
       115,      5700,  3920,   515,  1714,  3971,  1314,   860
       116,      5750,  3931,   535,  1684,  3967,  1342,   836
       117,      5800,  3941,   555,  1653,  3963,  1371,   812
       118,      5850,  3950,   576,  1623,  3958,  1400,   788
       119,      5900,  3959,   597,  1592,  3952,  1429,   765
       120,      5950,  3967,   618,  1562,  3946,  1458,   742
       121,      6000,  3975,   640,  1532,  3940,  1487,   719
       122,      6050,  3983,   662,  1502,  3933,  1517,   697
       123,      6100,  3990,   684,  1472,  3925,  1547,   675
       124,      6150,  3997,   707,  1443,  3918,  1576,   653
       125,      6200,  4003,   730,  1413,  3909,  1606,   632
       126,      6250,  4008,   753,  1384,  3901,  1636,   611
       127,      6300,  4013,   777,  1355,  3891,  1666,   590
       128,      6350,  4018,   801,  1326,  3882,  1696,   570
       129,      6400,  4022,   825,  1297,  3872,  1727,   550
       130,      6450,  4026,   850,  1268,  3861,  1757,   530
       131,      6500,  4029,   875,  1240,  3850,  1788,   511
       132,      6550,  4032,   900,  1211,  3839,  1818,   492
       133,      6600,  4034,   925,  1183,  3827,  1849,   474
       134,      6650,  4036,   951,  1156,  3814,  1879,   456
       135,      6700,  4037,   977,  1128,  3801,  1910,   438
       136,      6750,  4038,  1003,  1101,  3788,  1941,   421
       137,      6800,  4039,  1030,  1073,  3775,  1971,   404
       138,      6850,  4038,  1056,  1047,  3761,  2002,   388
       139,      6900,  4038,  1083,  1020,  3746,  2033,   372
       140,      6950,  4037,  1110,   994,  3731,  2064,   356
       141,      7000,  4035,  1138,   967,  3716,  2095,   341
       142,      7050,  4033,  1165,   942,  3700,  2125,   326
       143,      7100,  4031,  1193,   916,  3684,  2156,   312
       144,      7150,  4027,  1221,   891,  3667,  2187,   298
       145,      7200,  4024,  1250,   866,  3650,  2218,   284
       146,      7250,  4020,  1278,   841,  3633,  2249,   271
       147,      7300,  4015,  1307,   817,  3615,  2279,   258
       148,      7350,  4010,  1335,   792,  3597,  2310,   246
       149,      7400,  4005,  1364,   769,  3579,  2340,   234
       150,      7450,  3999,  1393,   745,  3560,  2371,   223
       151,      7500,  3993,  1423,   722,  3540,  2401,   212
       152,      7550,  3986,  1452,   699,  3521,  2432,   202
       153,      7600,  3978,  1481,   677,  3501,  2462,   192
       154,      7650,  3971,  1511,   655,  3480,  2492,   182
       155,      7700,  3962,  1541,   633,  3460,  2522,   173
       156,      7750,  3954,  1571,   611,  3439,  2552,   165
       157,      7800,  3944,  1601,   590,  3417,  2582,   156
       158,      7850,  3935,  1631,   569,  3395,  2612,   149
       159,      7900,  3925,  1661,   549,  3373,  2641,   142
       160,      7950,  3914,  1691,   529,  3351,  2671,   135
       161,      8000,  3903,  1722,   510,  3328,  2700,   129
       162,      8050,  3891,  1752,   490,  3305,  2729,   123
       163,      8100,  3880,  1783,   471,  3282,  2758,   117
       164,      8150,  3867,  1813,   453,  3258,  2787,   113
       165,      8200,  3854,  1844,   435,  3234,  2815,   108
       166,      8250,  3841,  1875,   417,  3210,  2844,   104
       167,      8300,  3827,  1905,   400,  3185,  2872,   101
       168,      8350,  3813,  1936,   383,  3160,  2900,    98
       169,      8400,  3799,  1967,   367,  3135,  2928,    95
       170,      8450,  3784,  1998,   351,  3110,  2956,    93
       171,      8500,  3768,  2028,   335,  3084,  2983,    92
       172,      8550,  3752,  2059,   320,  3058,  3010,    91
       173,      8600,  3736,  2090,   305,  3032,  3037,    90
       174,      8650,  3719,  2121,   291,  3006,  3064,    90
       175,      8700,  3702,  2151,   277,  2979,  3091,    91
       176,      8750,  3685,  2182,   264,  2952,  3117,    92
       177,      8800,  3667,  2213,   251,  2925,  3143,    93
       178,      8850,  3649,  2243,   238,  2898,  3168,    95
       179,      8900,  3630,  2274,   226,  2870,  3194,    97
       180,      8950,  3611,  2304,   214,  2843,  3219,   100
       181,      9000,  3592,  2335,   203,  2815,  3244,   103
       182,      9050,  3572,  2365,   193,  2787,  3269,   107
       183,      9100,  3552,  2395,   182,  2758,  3293,   111
       184,      9150,  3531,  2425,   172,  2730,  3317,   116
       185,      9200,  3510,  2455,   163,  2701,  3341,   121
       186,      9250,  3489,  2485,   154,  2673,  3364,   127
       187,      9300,  3467,  2515,   146,  2644,  3387,   133
       188,      9350,  3445,  2545,   138,  2614,  3410,   140
       189,      9400,  3423,  2574,   130,  2585,  3432,   147
       190,      9450,  3401,  2604,   124,  2556,  3454,   154
       191,      9500,  3378,  2633,   117,  2526,  3476,   162
       192,      9550,  3354,  2662,   111,  2497,  3497,   171
       193,      9600,  3331,  2691,   105,  2467,  3518,   180
       194,      9650,  3307,  2720,   100,  2437,  3539,   189
       195,      9700,  3283,  2748,    96,  2407,  3559,   199
       196,      9750,  3258,  2777,    92,  2377,  3579,   209
       197,      9800,  3233,  2805,    88,  2347,  3599,   220
       198,      9850,  3208,  2833,    85,  2317,  3618,   231
       199,      9900,  3183,  2861,    82,  2287,  3637,   243
       200,      9950,  3157,  2889,    80,  2256,  3655,   255
       201,     10000,  3131,  2916,    79,  2226,  3674,   268
       202,     10050,  3105,  2943,    78,  2195,  3691,   281
       203,     10100,  3079,  2970,    77,  2165,  3708,   294
       204,     10150,  3052,  2997,    77,  2134,  3725,   308
       205,     10200,  3025,  3024,    77,  2104,  3742,   322
       206,     10250,  2998,  3050,    78,  2073,  3758,   337
       207,     10300,  2971,  3076,    79,  2043,  3773,   352
       208,     10350,  2943,  3102,    81,  2012,  3789,   368
       209,     10400,  2915,  3127,    83,  1982,  3803,   384
       210,     10450,  2887,  3152,    86,  1951,  3818,   400
       211,     10500,  2859,  3177,    89,  1921,  3832,   417
       212,     10550,  2831,  3202,    93,  1890,  3845,   434
       213,     10600,  2802,  3226,    97,  1860,  3858,   452
       214,     10650,  2773,  3250,   102,  1830,  3871,   470
       215,     10700,  2744,  3274,   107,  1799,  3883,   488
       216,     10750,  2715,  3297,   113,  1769,  3895,   507
       217,     10800,  2686,  3320,   119,  1739,  3906,   526
       218,     10850,  2657,  3343,   125,  1709,  3917,   545
       219,     10900,  2627,  3366,   133,  1679,  3927,   565
       220,     10950,  2597,  3388,   140,  1649,  3937,   585
       221,     11000,  2567,  3410,   148,  1619,  3946,   606
       222,     11050,  2537,  3431,   157,  1589,  3955,   627
       223,     11100,  2507,  3452,   166,  1559,  3964,   648
       224,     11150,  2477,  3473,   175,  1530,  3972,   670
       225,     11200,  2447,  3493,   185,  1501,  3980,   692
       226,     11250,  2417,  3513,   195,  1471,  3987,   714
       227,     11300,  2386,  3533,   206,  1442,  3993,   737
       228,     11350,  2356,  3552,   218,  1413,  3999,   760
       229,     11400,  2325,  3571,   229,  1384,  4005,   783
       230,     11450,  2294,  3590,   242,  1356,  4010,   806
       231,     11500,  2263,  3608,   254,  1327,  4015,   830
       232,     11550,  2233,  3625,   267,  1299,  4019,   854
       233,     11600,  2202,  3643,   281,  1271,  4023,   879
       234,     11650,  2171,  3660,   295,  1243,  4026,   904
       235,     11700,  2140,  3676,   309,  1215,  4029,   929
       236,     11750,  2109,  3692,   324,  1188,  4031,   954
       237,     11800,  2078,  3708,   340,  1160,  4033,   980
       238,     11850,  2047,  3723,   355,  1133,  4035,  1005
       239,     11900,  2017,  3738,   371,  1106,  4036,  1032
       240,     11950,  1986,  3752,   388,  1080,  4036,  1058
       241,     12000,  1955,  3766,   405,  1053,  4036,  1085
       242,     12050,  1924,  3780,   422,  1027,  4035,  1111
       243,     12100,  1893,  3793,   440,  1001,  4034,  1138
       244,     12150,  1862,  3806,   458,   976,  4033,  1166
       245,     12200,  1832,  3818,   477,   950,  4031,  1193
       246,     12250,  1801,  3830,   496,   925,  4028,  1221
       247,     12300,  1770,  3841,   515,   900,  4025,  1249
       248,     12350,  1740,  3852,   535,   876,  4022,  1277
       249,     12400,  1710,  3863,   555,   851,  4018,  1305
       250,     12450,  1679,  3873,   576,   827,  4013,  1334
       251,     12500,  1649,  3882,   597,   804,  4008,  1362
       252,     12550,  1619,  3891,   618,   780,  4003,  1391
       253,     12600,  1589,  3900,   639,   757,  3997,  1420
       254,     12650,  1559,  3908,   661,   735,  3991,  1449
       255,     12700,  1529,  3916,   684,   712,  3984,  1479
       256,     12750,  1499,  3923,   706,   690,  3976,  1508
       257,     12800,  1470,  3930,   729,   668,  3969,  1538
       258,     12850,  1441,  3936,   752,   647,  3960,  1567
       259,     12900,  1411,  3942,   776,   626,  3952,  1597
       260,     12950,  1382,  3947,   800,   605,  3943,  1627
       261,     13000,  1353,  3952,   824,   585,  3933,  1657
       262,     13050,  1325,  3956,   849,   565,  3923,  1687
       263,     13100,  1296,  3960,   874,   545,  3912,  1717
       264,     13150,  1268,  3963,   899,   526,  3901,  1748
       265,     13200,  1240,  3966,   924,   507,  3890,  1778
       266,     13250,  1212,  3969,   950,   488,  3878,  1808
       267,     13300,  1184,  3971,   976,   470,  3865,  1839
       268,     13350,  1157,  3972,  1002,   452,  3853,  1869
       269,     13400,  1129,  3973,  1029,   435,  3839,  1900
       270,     13450,  1102,  3974,  1055,   418,  3826,  1931
       271,     13500,  1076,  3974,  1082,   402,  3812,  1961
       272,     13550,  1049,  3973,  1110,   385,  3797,  1992
       273,     13600,  1023,  3972,  1137,   370,  3782,  2023
       274,     13650,   997,  3971,  1165,   354,  3767,  2053
       275,     13700,   971,  3969,  1193,   339,  3751,  2084
       276,     13750,   945,  3966,  1221,   325,  3735,  2115
       277,     13800,   920,  3963,  1249,   311,  3718,  2145
       278,     13850,   895,  3960,  1278,   297,  3701,  2176
       279,     13900,   871,  3956,  1307,   284,  3684,  2206
       280,     13950,   846,  3952,  1336,   271,  3666,  2237
       281,     14000,   822,  3947,  1365,   259,  3648,  2267
       282,     14050,   799,  3942,  1394,   247,  3629,  2298
       283,     14100,   775,  3936,  1424,   236,  3610,  2328
       284,     14150,   752,  3930,  1453,   225,  3591,  2359
       285,     14200,   729,  3923,  1483,   214,  3571,  2389
       286,     14250,   707,  3916,  1513,   204,  3551,  2419
       287,     14300,   685,  3908,  1543,   194,  3530,  2449
       288,     14350,   663,  3900,  1573,   185,  3509,  2479
       289,     14400,   642,  3892,  1603,   176,  3488,  2509
       290,     14450,   620,  3883,  1634,   168,  3467,  2539
       291,     14500,   600,  3873,  1664,   160,  3445,  2568
       292,     14550,   579,  3863,  1695,   153,  3422,  2598
       293,     14600,   559,  3853,  1726,   146,  3400,  2627
       294,     14650,   540,  3842,  1757,   140,  3377,  2656
       295,     14700,   521,  3830,  1787,   134,  3354,  2685
       296,     14750,   502,  3819,  1818,   128,  3330,  2714
       297,     14800,   483,  3806,  1849,   123,  3306,  2743
       298,     14850,   465,  3794,  1880,   119,  3282,  2771
       299,     14900,   448,  3781,  1912,   115,  3258,  2800
       300,     14950,   430,  3767,  1943,   111,  3233,  2828
       301,     15000,   413,  3753,  1974,   108,  3208,  2856
       302,     15050,   397,  3739,  2005,   105,  3182,  2884
