EMTDC_Simulation , 1,1999
 6, 6A, 0D
 1, IA: A1,A,A1,kA,0.487702E-02,-7.68608    , 0.0,     0,  4096,     1.000000,1,S
 2, IB: A2,A,A2,kA,0.430430E-02,-9.94436    , 0.0,     0,  4096,     1.000000,1,S
 3, IC: A3,A,A3,kA,0.430697E-02,-9.95524    , 0.0,     0,  4096,     1.000000,1,S
 4, UA: A4,A,A4,kV,0.867601E-01,-177.635    , 0.0,     0,  4096,     1.000000,1,S
 5, UB: A5,A,A5,kV,0.865119E-01,-177.732    , 0.0,     0,  4096,     1.000000,1,S
 6, UC: A6,A,A6,kV,0.867020E-01,-177.397    , 0.0,     0,  4096,     1.000000,1,S
50
1
20000,     36000
05/10/2023,18:48:25.000000    
05/10/2023,18:48:25.000000    
ASCII
1
         1,         0,  1504,  2255,  2448,  1993,   353,  3798
         2,        50,  1506,  2253,  2448,  2024,   337,  3783
         3,       100,  1508,  2251,  2448,  2056,   321,  3767
         4,       150,  1509,  2249,  2448,  2087,   306,  3751
         5,       200,  1511,  2247,  2449,  2118,   291,  3735
         6,       250,  1512,  2245,  2449,  2149,   276,  3718
         7,       300,  1514,  2243,  2449,  2181,   262,  3701
         8,       350,  1516,  2241,  2449,  2212,   249,  3684
         9,       400,  1517,  2239,  2449,  2243,   235,  3666
        10,       450,  1519,  2238,  2449,  2274,   223,  3647
        11,       500,  1521,  2236,  2448,  2305,   210,  3628
        12,       550,  1523,  2234,  2448,  2336,   198,  3609
        13,       600,  1524,  2232,  2448,  2367,   187,  3590
        14,       650,  1526,  2230,  2448,  2398,   176,  3570
        15,       700,  1528,  2229,  2448,  2429,   166,  3549
        16,       750,  1530,  2227,  2447,  2459,   156,  3529
        17,       800,  1531,  2225,  2447,  2490,   146,  3507
        18,       850,  1533,  2223,  2447,  2520,   137,  3486
        19,       900,  1535,  2222,  2446,  2551,   128,  3464
        20,       950,  1537,  2220,  2446,  2581,   120,  3442
        21,      1000,  1539,  2218,  2446,  2611,   113,  3420
        22,      1050,  1540,  2217,  2445,  2641,   106,  3397
        23,      1100,  1542,  2215,  2445,  2671,    99,  3374
        24,      1150,  1544,  2214,  2444,  2700,    93,  3350
        25,      1200,  1546,  2212,  2443,  2730,    87,  3326
        26,      1250,  1548,  2211,  2443,  2759,    82,  3302
        27,      1300,  1550,  2209,  2442,  2788,    77,  3278
        28,      1350,  1552,  2208,  2442,  2817,    73,  3253
        29,      1400,  1554,  2206,  2441,  2846,    69,  3228
        30,      1450,  1555,  2205,  2440,  2875,    66,  3203
        31,      1500,  1557,  2204,  2439,  2903,    63,  3177
        32,      1550,  1559,  2202,  2438,  2931,    61,  3151
        33,      1600,  1561,  2201,  2438,  2959,    59,  3125
        34,      1650,  1563,  2200,  2437,  2987,    58,  3098
        35,      1700,  1565,  2198,  2436,  3014,    57,  3072
        36,      1750,  1567,  2197,  2435,  3042,    56,  3045
        37,      1800,  1569,  2196,  2434,  3069,    57,  3018
        38,      1850,  1571,  2195,  2433,  3095,    57,  2990
        39,      1900,  1573,  2193,  2432,  3122,    58,  2962
        40,      1950,  1575,  2192,  2431,  3148,    60,  2935
        41,      2000,  1577,  2191,  2430,  3174,    62,  2906
        42,      2050,  1578,  2190,  2429,  3200,    65,  2878
        43,      2100,  1580,  2189,  2428,  3225,    68,  2850
        44,      2150,  1582,  2188,  2426,  3250,    72,  2821
        45,      2200,  1584,  2187,  2425,  3275,    76,  2792
        46,      2250,  1586,  2186,  2424,  3300,    80,  2763
        47,      2300,  1588,  2185,  2423,  3324,    85,  2733
        48,      2350,  1590,  2184,  2421,  3348,    91,  2704
        49,      2400,  1592,  2183,  2420,  3371,    97,  2674
        50,      2450,  1594,  2183,  2419,  3395,   104,  2645
        51,      2500,  1596,  2182,  2417,  3418,   111,  2615
        52,      2550,  1598,  2181,  2416,  3440,   118,  2585
        53,      2600,  1600,  2180,  2415,  3462,   126,  2554
        54,      2650,  1601,  2180,  2413,  3484,   135,  2524
        55,      2700,  1603,  2179,  2412,  3506,   143,  2494
        56,      2750,  1605,  2178,  2410,  3527,   153,  2463
        57,      2800,  1607,  2178,  2409,  3548,   163,  2432
        58,      2850,  1609,  2177,  2407,  3568,   173,  2401
        59,      2900,  1611,  2177,  2406,  3588,   184,  2371
        60,      2950,  1613,  2176,  2404,  3608,   195,  2340
        61,      3000,  1614,  2176,  2402,  3627,   207,  2309
        62,      3050,  1616,  2175,  2401,  3646,   219,  2278
        63,      3100,  1618,  2175,  2399,  3665,   232,  2246
        64,      3150,  1620,  2175,  2397,  3683,   245,  2215
        65,      3200,  1622,  2174,  2396,  3701,   258,  2184
        66,      3250,  1623,  2174,  2394,  3718,   272,  2153
        67,      3300,  1625,  2174,  2392,  3735,   287,  2121
        68,      3350,  1627,  2173,  2390,  3751,   301,  2090
        69,      3400,  1629,  2173,  2389,  3767,   317,  2059
        70,      3450,  1630,  2173,  2387,  3783,   332,  2027
        71,      3500,  1632,  2173,  2385,  3798,   349,  1996
        72,      3550,  1634,  2173,  2383,  3813,   365,  1965
        73,      3600,  1636,  2173,  2381,  3827,   382,  1934
        74,      3650,  1637,  2173,  2379,  3841,   400,  1902
        75,      3700,  1639,  2173,  2378,  3855,   417,  1871
        76,      3750,  1641,  2173,  2376,  3868,   436,  1840
        77,      3800,  1642,  2173,  2374,  3880,   454,  1809
        78,      3850,  1644,  2173,  2372,  3892,   473,  1778
        79,      3900,  1645,  2173,  2370,  3904,   493,  1747
        80,      3950,  1647,  2173,  2368,  3915,   512,  1716
        81,      4000,  1649,  2174,  2366,  3926,   532,  1685
        82,      4050,  1650,  2174,  2364,  3936,   553,  1654
        83,      4100,  1652,  2174,  2362,  3946,   574,  1623
        84,      4150,  1653,  2174,  2360,  3956,   595,  1593
        85,      4200,  1655,  2175,  2358,  3964,   617,  1562
        86,      4250,  1656,  2175,  2356,  3973,   639,  1532
        87,      4300,  1658,  2176,  2354,  3981,   661,  1502
        88,      4350,  1659,  2176,  2352,  3988,   684,  1472
        89,      4400,  1660,  2177,  2350,  3995,   707,  1442
        90,      4450,  1662,  2177,  2347,  4002,   730,  1412
        91,      4500,  1663,  2178,  2345,  4008,   754,  1382
        92,      4550,  1665,  2178,  2343,  4013,   778,  1353
        93,      4600,  1666,  2179,  2341,  4018,   802,  1323
        94,      4650,  1667,  2179,  2339,  4023,   827,  1294
        95,      4700,  1668,  2180,  2337,  4027,   852,  1265
        96,      4750,  1670,  2181,  2335,  4031,   877,  1236
        97,      4800,  1671,  2182,  2333,  4034,   902,  1208
        98,      4850,  1672,  2182,  2330,  4036,   928,  1180
        99,      4900,  1673,  2183,  2328,  4038,   954,  1151
       100,      4950,  1675,  2184,  2326,  4040,   981,  1123
       101,      5000,  1676,  2185,  2324,  4041,  1007,  1096
       102,      5050,  1677,  2186,  2322,  4042,  1034,  1068
       103,      5100,  1678,  2187,  2319,  4042,  1061,  1041
       104,      5150,  1679,  2188,  2317,  4042,  1089,  1014
       105,      5200,  1680,  2189,  2315,  4041,  1116,   987
       106,      5250,  1681,  2190,  2313,  4039,  1144,   961
       107,      5300,  1682,  2191,  2311,  4038,  1172,   935
       108,      5350,  1683,  2192,  2309,  4035,  1201,   909
       109,      5400,  1684,  2193,  2306,  4033,  1229,   883
       110,      5450,  1685,  2194,  2304,  4029,  1258,   858
       111,      5500,  1686,  2195,  2302,  4026,  1287,   833
       112,      5550,  1687,  2197,  2300,  4021,  1316,   808
       113,      5600,  1687,  2198,  2298,  4016,  1345,   783
       114,      5650,  1688,  2199,  2296,  4011,  1375,   759
       115,      5700,  1689,  2200,  2293,  4006,  1404,   735
       116,      5750,  1690,  2202,  2291,  3999,  1434,   712
       117,      5800,  1690,  2203,  2289,  3993,  1464,   689
       118,      5850,  1691,  2204,  2287,  3985,  1494,   666
       119,      5900,  1692,  2206,  2285,  3978,  1524,   643
       120,      5950,  1692,  2207,  2283,  3970,  1555,   621
       121,      6000,  1693,  2209,  2280,  3961,  1585,   599
       122,      6050,  1694,  2210,  2278,  3952,  1616,   578
       123,      6100,  1694,  2212,  2276,  3942,  1646,   557
       124,      6150,  1695,  2213,  2274,  3932,  1677,   536
       125,      6200,  1695,  2215,  2272,  3922,  1708,   516
       126,      6250,  1696,  2216,  2270,  3911,  1739,   496
       127,      6300,  1696,  2218,  2268,  3900,  1770,   476
       128,      6350,  1696,  2220,  2266,  3888,  1801,   457
       129,      6400,  1697,  2221,  2264,  3876,  1833,   438
       130,      6450,  1697,  2223,  2262,  3863,  1864,   420
       131,      6500,  1697,  2225,  2260,  3850,  1895,   402
       132,      6550,  1698,  2226,  2257,  3836,  1926,   384
       133,      6600,  1698,  2228,  2255,  3822,  1958,   367
       134,      6650,  1698,  2230,  2253,  3807,  1989,   350
       135,      6700,  1698,  2232,  2251,  3792,  2021,   334
       136,      6750,  1699,  2233,  2249,  3777,  2052,   318
       137,      6800,  1699,  2235,  2248,  3761,  2084,   302
       138,      6850,  1699,  2237,  2246,  3745,  2115,   287
       139,      6900,  1699,  2239,  2244,  3728,  2146,   272
       140,      6950,  1699,  2241,  2242,  3711,  2178,   258
       141,      7000,  1699,  2243,  2240,  3694,  2209,   244
       142,      7050,  1699,  2245,  2238,  3676,  2241,   231
       143,      7100,  1699,  2247,  2236,  3657,  2272,   218
       144,      7150,  1699,  2248,  2234,  3639,  2303,   206
       145,      7200,  1699,  2250,  2232,  3620,  2334,   194
       146,      7250,  1698,  2252,  2231,  3600,  2365,   182
       147,      7300,  1698,  2254,  2229,  3580,  2396,   171
       148,      7350,  1698,  2256,  2227,  3560,  2427,   161
       149,      7400,  1698,  2258,  2225,  3539,  2458,   150
       150,      7450,  1698,  2260,  2224,  3518,  2489,   141
       151,      7500,  1697,  2262,  2222,  3497,  2520,   131
       152,      7550,  1697,  2264,  2220,  3475,  2550,   123
       153,      7600,  1697,  2267,  2219,  3453,  2580,   114
       154,      7650,  1696,  2269,  2217,  3431,  2611,   107
       155,      7700,  1696,  2271,  2215,  3408,  2641,    99
       156,      7750,  1695,  2273,  2214,  3385,  2671,    93
       157,      7800,  1695,  2275,  2212,  3362,  2701,    86
       158,      7850,  1694,  2277,  2211,  3338,  2730,    80
       159,      7900,  1694,  2279,  2209,  3314,  2760,    75
       160,      7950,  1693,  2281,  2208,  3289,  2789,    70
       161,      8000,  1693,  2283,  2206,  3265,  2819,    66
       162,      8050,  1692,  2286,  2205,  3240,  2847,    62
       163,      8100,  1692,  2288,  2203,  3214,  2876,    58
       164,      8150,  1691,  2290,  2202,  3189,  2905,    55
       165,      8200,  1690,  2292,  2200,  3163,  2933,    53
       166,      8250,  1689,  2294,  2199,  3137,  2961,    51
       167,      8300,  1689,  2296,  2198,  3110,  2989,    49
       168,      8350,  1688,  2299,  2197,  3084,  3017,    48
       169,      8400,  1687,  2301,  2195,  3057,  3045,    48
       170,      8450,  1686,  2303,  2194,  3030,  3072,    48
       171,      8500,  1685,  2305,  2193,  3002,  3099,    49
       172,      8550,  1684,  2307,  2192,  2975,  3126,    50
       173,      8600,  1684,  2309,  2191,  2947,  3152,    51
       174,      8650,  1683,  2312,  2189,  2919,  3178,    53
       175,      8700,  1682,  2314,  2188,  2890,  3204,    56
       176,      8750,  1681,  2316,  2187,  2862,  3230,    58
       177,      8800,  1680,  2318,  2186,  2833,  3255,    62
       178,      8850,  1679,  2320,  2185,  2804,  3280,    66
       179,      8900,  1677,  2323,  2184,  2775,  3305,    70
       180,      8950,  1676,  2325,  2183,  2746,  3329,    75
       181,      9000,  1675,  2327,  2182,  2716,  3353,    81
       182,      9050,  1674,  2329,  2182,  2687,  3377,    87
       183,      9100,  1673,  2331,  2181,  2657,  3401,    93
       184,      9150,  1672,  2333,  2180,  2627,  3424,   100
       185,      9200,  1670,  2336,  2179,  2597,  3447,   107
       186,      9250,  1669,  2338,  2178,  2567,  3469,   115
       187,      9300,  1668,  2340,  2178,  2536,  3491,   123
       188,      9350,  1667,  2342,  2177,  2506,  3513,   132
       189,      9400,  1665,  2344,  2176,  2475,  3534,   141
       190,      9450,  1664,  2346,  2176,  2444,  3555,   151
       191,      9500,  1663,  2348,  2175,  2414,  3576,   161
       192,      9550,  1661,  2350,  2175,  2383,  3596,   172
       193,      9600,  1660,  2353,  2174,  2352,  3616,   183
       194,      9650,  1658,  2355,  2174,  2321,  3636,   195
       195,      9700,  1657,  2357,  2173,  2290,  3655,   207
       196,      9750,  1656,  2359,  2173,  2259,  3674,   219
       197,      9800,  1654,  2361,  2173,  2227,  3692,   232
       198,      9850,  1653,  2363,  2172,  2196,  3710,   245
       199,      9900,  1651,  2365,  2172,  2165,  3728,   259
       200,      9950,  1649,  2367,  2172,  2133,  3745,   273
       201,     10000,  1648,  2369,  2171,  2102,  3761,   288
       202,     10050,  1646,  2371,  2171,  2071,  3778,   303
       203,     10100,  1645,  2373,  2171,  2039,  3794,   319
       204,     10150,  1643,  2375,  2171,  2008,  3809,   335
       205,     10200,  1642,  2377,  2171,  1977,  3824,   351
       206,     10250,  1640,  2379,  2171,  1945,  3839,   368
       207,     10300,  1638,  2381,  2171,  1914,  3853,   385
       208,     10350,  1637,  2383,  2171,  1883,  3866,   403
       209,     10400,  1635,  2384,  2171,  1851,  3880,   421
       210,     10450,  1633,  2386,  2171,  1820,  3892,   440
       211,     10500,  1631,  2388,  2171,  1789,  3905,   458
       212,     10550,  1630,  2390,  2171,  1758,  3917,   478
       213,     10600,  1628,  2392,  2171,  1727,  3928,   497
       214,     10650,  1626,  2394,  2171,  1696,  3939,   517
       215,     10700,  1624,  2395,  2172,  1665,  3950,   538
       216,     10750,  1623,  2397,  2172,  1634,  3960,   559
       217,     10800,  1621,  2399,  2172,  1604,  3969,   580
       218,     10850,  1619,  2400,  2173,  1573,  3978,   601
       219,     10900,  1617,  2402,  2173,  1543,  3987,   623
       220,     10950,  1615,  2404,  2173,  1512,  3995,   645
       221,     11000,  1614,  2405,  2174,  1482,  4003,   668
       222,     11050,  1612,  2407,  2174,  1452,  4010,   691
       223,     11100,  1610,  2409,  2175,  1422,  4016,   714
       224,     11150,  1608,  2410,  2175,  1392,  4023,   738
       225,     11200,  1606,  2412,  2176,  1363,  4028,   762
       226,     11250,  1604,  2413,  2176,  1333,  4034,   786
       227,     11300,  1602,  2415,  2177,  1304,  4038,   810
       228,     11350,  1601,  2416,  2178,  1275,  4043,   835
       229,     11400,  1599,  2418,  2179,  1246,  4046,   860
       230,     11450,  1597,  2419,  2179,  1218,  4050,   886
       231,     11500,  1595,  2420,  2180,  1189,  4052,   911
       232,     11550,  1593,  2422,  2181,  1161,  4055,   937
       233,     11600,  1591,  2423,  2182,  1133,  4057,   964
       234,     11650,  1589,  2424,  2183,  1105,  4058,   990
       235,     11700,  1587,  2426,  2183,  1077,  4059,  1017
       236,     11750,  1585,  2427,  2184,  1050,  4059,  1044
       237,     11800,  1583,  2428,  2185,  1023,  4059,  1071
       238,     11850,  1581,  2429,  2186,   996,  4058,  1099
       239,     11900,  1579,  2431,  2187,   970,  4057,  1127
       240,     11950,  1577,  2432,  2188,   943,  4055,  1155
       241,     12000,  1576,  2433,  2190,   917,  4053,  1183
       242,     12050,  1574,  2434,  2191,   891,  4050,  1211
       243,     12100,  1572,  2435,  2192,   866,  4047,  1240
       244,     12150,  1570,  2436,  2193,   841,  4044,  1269
       245,     12200,  1568,  2437,  2194,   816,  4040,  1298
       246,     12250,  1566,  2438,  2195,   791,  4035,  1327
       247,     12300,  1564,  2439,  2197,   767,  4030,  1356
       248,     12350,  1562,  2440,  2198,   743,  4024,  1386
       249,     12400,  1560,  2441,  2199,   719,  4018,  1416
       250,     12450,  1558,  2441,  2201,   696,  4012,  1446
       251,     12500,  1556,  2442,  2202,   673,  4005,  1476
       252,     12550,  1554,  2443,  2203,   650,  3997,  1506
       253,     12600,  1552,  2444,  2205,   628,  3989,  1536
       254,     12650,  1551,  2444,  2206,   606,  3980,  1567
       255,     12700,  1549,  2445,  2208,   584,  3972,  1597
       256,     12750,  1547,  2446,  2209,   563,  3962,  1628
       257,     12800,  1545,  2446,  2211,   542,  3952,  1659
       258,     12850,  1543,  2447,  2212,   522,  3942,  1689
       259,     12900,  1541,  2447,  2214,   502,  3931,  1720
       260,     12950,  1539,  2448,  2215,   482,  3920,  1751
       261,     13000,  1538,  2448,  2217,   463,  3908,  1783
       262,     13050,  1536,  2449,  2219,   444,  3896,  1814
       263,     13100,  1534,  2449,  2220,   425,  3883,  1845
       264,     13150,  1532,  2449,  2222,   407,  3870,  1876
       265,     13200,  1530,  2450,  2224,   389,  3856,  1908
       266,     13250,  1528,  2450,  2226,   372,  3842,  1939
       267,     13300,  1527,  2450,  2227,   355,  3828,  1970
       268,     13350,  1525,  2451,  2229,   338,  3813,  2002
       269,     13400,  1523,  2451,  2231,   322,  3798,  2033
       270,     13450,  1521,  2451,  2233,   306,  3782,  2065
       271,     13500,  1520,  2451,  2234,   291,  3766,  2096
       272,     13550,  1518,  2451,  2236,   276,  3749,  2128
       273,     13600,  1516,  2451,  2238,   262,  3732,  2159
       274,     13650,  1515,  2451,  2240,   248,  3715,  2190
       275,     13700,  1513,  2451,  2242,   234,  3697,  2222
       276,     13750,  1511,  2451,  2244,   221,  3678,  2253
       277,     13800,  1510,  2451,  2246,   209,  3660,  2284
       278,     13850,  1508,  2451,  2248,   197,  3641,  2315
       279,     13900,  1506,  2451,  2250,   185,  3621,  2346
       280,     13950,  1505,  2451,  2252,   174,  3601,  2378
       281,     14000,  1503,  2450,  2254,   163,  3581,  2408
       282,     14050,  1502,  2450,  2256,   153,  3561,  2439
       283,     14100,  1500,  2450,  2258,   143,  3540,  2470
       284,     14150,  1499,  2450,  2260,   133,  3518,  2501
       285,     14200,  1497,  2449,  2262,   124,  3497,  2531
       286,     14250,  1496,  2449,  2264,   116,  3474,  2562
       287,     14300,  1494,  2448,  2266,   108,  3452,  2592
       288,     14350,  1493,  2448,  2268,   101,  3429,  2622
       289,     14400,  1491,  2447,  2270,    94,  3406,  2652
       290,     14450,  1490,  2447,  2272,    87,  3383,  2682
       291,     14500,  1489,  2446,  2274,    81,  3359,  2712
       292,     14550,  1487,  2446,  2276,    75,  3335,  2742
       293,     14600,  1486,  2445,  2279,    70,  3311,  2771
       294,     14650,  1485,  2445,  2281,    66,  3286,  2800
       295,     14700,  1483,  2444,  2283,    62,  3261,  2829
       296,     14750,  1482,  2443,  2285,    58,  3236,  2858
       297,     14800,  1481,  2442,  2287,    55,  3210,  2887
       298,     14850,  1480,  2442,  2289,    52,  3184,  2915
       299,     14900,  1478,  2441,  2292,    50,  3158,  2943
       300,     14950,  1477,  2440,  2294,    49,  3131,  2971
       301,     15000,  1476,  2439,  2296,    48,  3105,  2999
       302,     15050,  1475,  2438,  2298,    47,  3078,  3027
