EMTDC_Simulation , 1,1999
 6, 6A, 0D
 1, IA: A1,A,A1,kA,0.487702E-02,-7.68608    , 0.0,     0,  4096,     1.000000,1,S
 2, IB: A2,A,A2,kA,0.430430E-02,-9.94436    , 0.0,     0,  4096,     1.000000,1,S
 3, IC: A3,A,A3,kA,0.430697E-02,-9.95524    , 0.0,     0,  4096,     1.000000,1,S
 4, UA: A4,A,A4,kV,0.867601E-01,-177.635    , 0.0,     0,  4096,     1.000000,1,S
 5, UB: A5,A,A5,kV,0.865119E-01,-177.732    , 0.0,     0,  4096,     1.000000,1,S
 6, UC: A6,A,A6,kV,0.867020E-01,-177.397    , 0.0,     0,  4096,     1.000000,1,S
50
1
20000,     36000
05/10/2023,18:48:25.000000    
05/10/2023,18:48:25.000000    
ASCII
1
         1,         0,  1059,  1054,  4024,  2024,   319,  3802
         2,       250,  1200,   921,  4017,  2182,   244,  3720
         3,       500,  1345,   796,  3997,  2339,   179,  3627
         4,       750,  1495,   679,  3965,  2494,   127,  3524
         5,      1000,  1649,   570,  3922,  2647,    86,  3413
         6,      1250,  1805,   471,  3866,  2795,    57,  3292
         7,      1500,  1962,   381,  3799,  2940,    40,  3165
         8,      1750,  2121,   302,  3722,  3079,    36,  3030
         9,      2000,  2278,   233,  3633,  3211,    45,  2889
        10,      2250,  2434,   176,  3535,  3336,    65,  2743
        11,      2500,  2588,   131,  3427,  3454,    98,  2593
        12,      2750,  2739,    97,  3311,  3563,   143,  2439
        13,      3000,  2885,    76,  3187,  3662,   199,  2283
        14,      3250,  3027,    67,  3056,  3752,   268,  2125
        15,      3500,  3162,    70,  2918,  3831,   347,  1967
        16,      3750,  3290,    86,  2775,  3899,   436,  1809
        17,      4000,  3411,   114,  2627,  3955,   536,  1653
        18,      4250,  3524,   154,  2475,  4000,   644,  1499
        19,      4500,  3627,   206,  2321,  4033,   762,  1348
        20,      4750,  3721,   269,  2165,  4054,   887,  1202
        21,      5000,  3804,   343,  2008,  4062,  1020,  1061
        22,      5250,  3877,   428,  1851,  4058,  1159,   926
        23,      5500,  3938,   523,  1695,  4041,  1304,   798
        24,      5750,  3988,   628,  1541,  4013,  1453,   678
        25,      6000,  4025,   741,  1390,  3972,  1605,   566
        26,      6250,  4051,   863,  1243,  3919,  1761,   463
        27,      6500,  4064,   992,  1100,  3854,  1918,   370
        28,      6750,  4065,  1128,   964,  3779,  2077,   287
        29,      7000,  4053,  1270,   834,  3693,  2235,   216
        30,      7250,  4029,  1417,   711,  3596,  2392,   155
        31,      7500,  3993,  1567,   596,  3490,  2546,   106
        32,      7750,  3945,  1721,   490,  3376,  2698,    69
        33,      8000,  3885,  1877,   394,  3253,  2846,    44
        34,      8250,  3814,  2034,   308,  3122,  2989,    32
        35,      8500,  3732,  2192,   232,  2985,  3126,    32
        36,      8750,  3639,  2349,   167,  2842,  3256,    44
        37,      9000,  3537,  2504,   114,  2694,  3379,    69
        38,      9250,  3425,  2656,    72,  2542,  3494,   106
        39,      9500,  3305,  2805,    43,  2387,  3600,   155
        40,      9750,  3178,  2949,    26,  2230,  3697,   216
        41,     10000,  3043,  3088,    21,  2072,  3783,   288
        42,     10250,  2902,  3220,    28,  1914,  3859,   371
        43,     10500,  2756,  3346,    48,  1756,  3923,   464
        44,     10750,  2605,  3463,    80,  1601,  3976,   567
        45,     11000,  2451,  3572,   124,  1447,  4017,   679
        46,     11250,  2295,  3672,   180,  1298,  4046,   799
        47,     11500,  2137,  3762,   247,  1153,  4062,   928
        48,     11750,  1978,  3841,   325,  1014,  4066,  1063
        49,     12000,  1820,  3910,   414,   881,  4058,  1204
        50,     12250,  1663,  3967,   512,   755,  4037,  1351
        51,     12500,  1509,  4013,   620,   638,  4004,  1502
        52,     12750,  1358,  4046,   737,   529,  3959,  1656
        53,     13000,  1211,  4068,   861,   429,  3902,  1813
        54,     13250,  1069,  4077,   993,   339,  3834,  1971
        55,     13500,   934,  4073,  1131,   260,  3755,  2130
        56,     13750,   805,  4058,  1275,   192,  3665,  2288
        57,     14000,   684,  4030,  1423,   135,  3565,  2444
        58,     14250,   571,  3989,  1575,    90,  3456,  2599
        59,     14500,   467,  3938,  1730,    57,  3338,  2750
        60,     14750,   373,  3874,  1887,    36,  3212,  2896
        61,     15000,   290,  3799,  2045,    28,  3079,  3038
        62,     15250,   217,  3714,  2202,    32,  2940,  3173
        63,     15500,   156,  3619,  2359,    49,  2795,  3301
        64,     15750,   106,  3514,  2513,    78,  2645,  3422
        65,     16000,    68,  3400,  2664,   119,  2492,  3534
        66,     16250,    42,  3278,  2812,   172,  2336,  3638
        67,     16500,    29,  3148,  2955,   236,  2178,  3731
        68,     16750,    28,  3012,  3092,   312,  2019,  3814
        69,     17000,    40,  2869,  3222,   398,  1861,  3886
        70,     17250,    64,  2722,  3345,   495,  1703,  3947
        71,     17500,   100,  2571,  3460,   601,  1548,  3996
        72,     17750,   149,  2417,  3567,   717,  1396,  4033
        73,     18000,   209,  2260,  3663,   840,  1248,  4058
        74,     18250,   280,  2103,  3750,   971,  1105,  4070
        75,     18500,   363,  1945,  3826,  1108,   967,  4070
        76,     18750,   455,  1788,  3891,  1252,   836,  4057
        77,     19000,   558,  1632,  3944,  1400,   713,  4032
        78,     19250,   670,  1479,  3986,  1552,   598,  3995
        79,     19500,   790,  1330,  4015,  1708,   491,  3946
        80,     19750,   918,  1186,  4033,  1865,   395,  3885
        81,     20000,  1053,  1046,  4038,  2024,   308,  3813
        82,     20250,  1195,   914,  4030,  2182,   233,  3730
        83,     20500,  1341,   788,  4010,  2340,   168,  3637
        84,     20750,  1492,   670,  3978,  2497,   115,  3533
        85,     21000,  1646,   560,  3934,  2650,    74,  3421
        86,     21250,  1803,   460,  3878,  2800,    45,  3300
        87,     21500,  1962,   370,  3811,  2945,    28,  3171
        88,     21750,  2121,   291,  3733,  3085,    24,  3036
        89,     22000,  2279,   222,  3644,  3218,    33,  2894
        90,     22250,  2436,   164,  3545,  3344,    53,  2747
        91,     22500,  2591,   119,  3437,  3462,    87,  2596
        92,     22750,  2743,    85,  3320,  3571,   132,  2441
        93,     23000,  2890,    64,  3195,  3671,   189,  2284
        94,     23250,  3032,    55,  3063,  3761,   257,  2125
        95,     23500,  3168,    58,  2924,  3841,   337,  1966
        96,     23750,  3297,    74,  2780,  3909,   427,  1808
        97,     24000,  3419,   102,  2632,  3966,   527,  1651
        98,     24250,  3532,   142,  2479,  4011,   636,  1496
        99,     24500,  3636,   194,  2324,  4044,   755,  1345
       100,     24750,  3730,   258,  2167,  4065,   881,  1198
       101,     25000,  3813,   333,  2009,  4073,  1014,  1056
       102,     25250,  3886,   418,  1851,  4069,  1154,   920
       103,     25500,  3948,   514,  1694,  4052,  1299,   791
       104,     25750,  3998,   619,  1539,  4023,  1449,   670
       105,     26000,  4036,   733,  1388,  3982,  1603,   558
       106,     26250,  4061,   856,  1240,  3929,  1759,   455
       107,     26500,  4075,   986,  1097,  3864,  1918,   361
       108,     26750,  4075,  1122,   959,  3788,  2077,   278
       109,     27000,  4064,  1265,   829,  3701,  2236,   206
       110,     27250,  4039,  1412,   705,  3605,  2393,   145
       111,     27500,  4003,  1564,   590,  3498,  2549,    96
       112,     27750,  3955,  1718,   484,  3383,  2702,    59
       113,     28000,  3894,  1875,   387,  3259,  2850,    34
       114,     28250,  3823,  2033,   300,  3128,  2994,    21
       115,     28500,  3740,  2191,   224,  2990,  3131,    21
       116,     28750,  3647,  2349,   159,  2846,  3263,    34
       117,     29000,  3544,  2504,   105,  2698,  3386,    59
       118,     29250,  3432,  2658,    64,  2545,  3502,    96
       119,     29500,  3312,  2807,    34,  2389,  3608,   145
       120,     29750,  3183,  2952,    17,  2231,  3705,   206
       121,     30000,  3048,  3091,    12,  2072,  3792,   279
       122,     30250,  2906,  3225,    20,  1913,  3868,   362
       123,     30500,  2759,  3351,    39,  1755,  3932,   456
       124,     30750,  2608,  3469,    72,  1598,  3985,   559
       125,     31000,  2453,  3578,   116,  1445,  4026,   672
       126,     31250,  2296,  3679,   172,  1294,  4055,   793
       127,     31500,  2137,  3769,   239,  1149,  4072,   922
       128,     31750,  1978,  3849,   318,  1009,  4076,  1058
       129,     32000,  1819,  3918,   407,   876,  4068,  1200
       130,     32250,  1662,  3975,   506,   749,  4047,  1348
       131,     32500,  1507,  4021,   615,   631,  4014,  1499
       132,     32750,  1355,  4054,   732,   521,  3968,  1654
       133,     33000,  1207,  4076,   857,   421,  3911,  1812
       134,     33250,  1065,  4085,   989,   331,  3843,  1970
       135,     33500,   929,  4081,  1128,   251,  3763,  2130
       136,     33750,   799,  4065,  1272,   183,  3673,  2289
       137,     34000,   678,  4037,  1422,   126,  3572,  2446
       138,     34250,   564,  3997,  1574,    81,  3462,  2601
       139,     34500,   460,  3945,  1730,    48,  3344,  2753
       140,     34750,   366,  3881,  1887,    27,  3218,  2900
       141,     35000,   282,  3806,  2046,    19,  3084,  3042
       142,     35250,   209,  3720,  2204,    23,  2944,  3178
       143,     35500,   147,  3624,  2361,    40,  2798,  3307
       144,     35750,    97,  3519,  2516,    69,  2648,  3428
       145,     36000,    59,  3404,  2668,   110,  2494,  3541
       146,     36250,    34,  3282,  2816,   163,  2337,  3645
       147,     36500,    20,  3152,  2960,   228,  2179,  3738
       148,     36750,    20,  3015,  3097,   304,  2019,  3822
       149,     37000,    31,  2872,  3228,   391,  1860,  3894
       150,     37250,    56,  2724,  3352,   488,  1702,  3955
       151,     37500,    92,  2572,  3468,   595,  1546,  4004
       152,     37750,   141,  2417,  3574,   711,  1393,  4041
       153,     38000,   201,  2260,  3671,   835,  1244,  4066
       154,     38250,   273,  2102,  3758,   966,  1101,  4079
       155,     38500,   355,  1943,  3834,  1104,   962,  4078
       156,     38750,   449,  1786,  3900,  1248,   831,  4066
       157,     39000,   552,  1629,  3953,  1397,   707,  4041
       158,     39250,   664,  1476,  3995,  1550,   592,  4003
       159,     39500,   785,  1326,  4025,  1706,   485,  3954
       160,     39750,   913,  1181,  4042,  1864,   388,  3893
       161,     40000,  1049,  1041,  4047,  2024,   301,  3820
       162,     40250,  1191,   908,  4039,  2183,   225,  3737
       163,     40500,  1338,   782,  4019,  2342,   160,  3643
       164,     40750,  1490,   663,  3987,  2498,   107,  3539
       165,     41000,  1645,   553,  3943,  2653,    66,  3426
       166,     41250,  1802,   453,  3887,  2803,    37,  3305
       167,     41500,  1961,   363,  3819,  2949,    20,  3176
       168,     41750,  2121,   283,  3740,  3089,    16,  3040
       169,     42000,  2280,   214,  3651,  3223,    25,  2897
       170,     42250,  2438,   156,  3552,  3349,    46,  2750
       171,     42500,  2593,   110,  3443,  3468,    79,  2598
       172,     42750,  2745,    77,  3326,  3577,   124,  2443
       173,     43000,  2893,    55,  3201,  3678,   182,  2285
       174,     43250,  3036,    46,  3068,  3768,   250,  2126
       175,     43500,  3172,    50,  2929,  3848,   330,  1966
       176,     43750,  3302,    65,  2784,  3916,   421,  1807
       177,     44000,  3424,    94,  2635,  3973,   521,  1649
       178,     44250,  3537,   134,  2482,  4019,   631,  1494
       179,     44500,  3641,   186,  2326,  4052,   750,  1342
       180,     44750,  3736,   250,  2169,  4072,   877,  1194
       181,     45000,  3820,   325,  2010,  4081,  1010,  1052
       182,     45250,  3893,   411,  1852,  4076,  1151,   916
       183,     45500,  3955,   507,  1694,  4060,  1297,   787
       184,     45750,  4005,   613,  1539,  4031,  1447,   665
       185,     46000,  4043,   727,  1387,  3989,  1601,   553
       186,     46250,  4068,   850,  1238,  3936,  1758,   449
       187,     46500,  4082,   981,  1095,  3871,  1917,   355
       188,     46750,  4082,  1118,   957,  3794,  2077,   272
       189,     47000,  4071,  1261,   826,  3707,  2236,   199
       190,     47250,  4046,  1409,   702,  3610,  2395,   138
       191,     47500,  4010,  1561,   586,  3503,  2551,    89
       192,     47750,  3961,  1716,   480,  3387,  2704,    52
       193,     48000,  3901,  1873,   382,  3263,  2853,    27
       194,     48250,  3829,  2032,   295,  3131,  2997,    14
       195,     48500,  3746,  2191,   219,  2993,  3135,    14
       196,     48750,  3653,  2349,   154,  2849,  3267,    27
       197,     49000,  3549,  2505,   100,  2700,  3391,    52
       198,     49250,  3437,  2658,    58,  2547,  3507,    90
       199,     49500,  3316,  2808,    29,  2390,  3613,   139
       200,     49750,  3187,  2954,    11,  2232,  3711,   200
       201,     50000,  3051,  3094,     7,  2072,  3797,   273
       202,     50250,  2909,  3227,    14,  1913,  3874,   357
       203,     50500,  2762,  3354,    34,  1754,  3939,   451
       204,     50750,  2610,  3472,    66,  1597,  3992,   554
       205,     51000,  2455,  3582,   111,  1443,  4033,   668
       206,     51250,  2297,  3683,   167,  1292,  4062,   789
       207,     51500,  2138,  3773,   235,  1146,  4079,   919
       208,     51750,  1978,  3853,   314,  1006,  4083,  1055
       209,     52000,  1818,  3922,   403,   872,  4074,  1198
       210,     52250,  1660,  3980,   502,   745,  4053,  1345
       211,     52500,  1505,  4026,   611,   626,  4020,  1497
       212,     52750,  1353,  4059,   729,   516,  3974,  1653
       213,     53000,  1205,  4081,   854,   416,  3917,  1811
       214,     53250,  1062,  4090,   987,   326,  3848,  1970
       215,     53500,   925,  4086,  1126,   246,  3768,  2130
       216,     53750,   795,  4071,  1271,   177,  3678,  2290
       217,     54000,   673,  4042,  1421,   120,  3577,  2447
       218,     54250,   560,  4002,  1574,    75,  3467,  2603
       219,     54500,   455,  3949,  1730,    42,  3348,  2755
       220,     54750,   361,  3885,  1888,    21,  3221,  2903
       221,     55000,   277,  3810,  2047,    12,  3087,  3045
       222,     55250,   203,  3724,  2205,    17,  2946,  3182
       223,     55500,   142,  3628,  2363,    34,  2800,  3311
       224,     55750,    91,  3522,  2519,    63,  2650,  3432
       225,     56000,    53,  3407,  2671,   104,  2495,  3545
       226,     56250,    28,  3284,  2820,   158,  2338,  3649
       227,     56500,    14,  3154,  2964,   223,  2179,  3743
       228,     56750,    14,  3016,  3102,   299,  2019,  3827
       229,     57000,    26,  2873,  3233,   386,  1860,  3899
       230,     57250,    50,  2725,  3357,   484,  1701,  3960
       231,     57500,    86,  2573,  3473,   591,  1545,  4010
       232,     57750,   135,  2417,  3579,   707,  1391,  4047
       233,     58000,   196,  2260,  3677,   831,  1242,  4072
       234,     58250,   268,  2101,  3764,   963,  1098,  4084
       235,     58500,   351,  1942,  3840,  1102,   959,  4084
       236,     58750,   444,  1784,  3906,  1246,   828,  4072
       237,     59000,   547,  1627,  3960,  1395,   703,  4046
       238,     59250,   660,  1473,  4001,  1549,   588,  4009
       239,     59500,   781,  1323,  4031,  1705,   481,  3959
       240,     59750,   910,  1178,  4048,  1864,   383,  3898
       241,     60000,  1046,  1038,  4053,  2024,   296,  3825
       242,     60250,  1189,   904,  4046,  2183,   220,  3742
       243,     60500,  1336,   777,  4026,  2342,   155,  3647
       244,     60750,  1488,   659,  3993,  2500,   102,  3543
       245,     61000,  1643,   549,  3949,  2654,    61,  3430
       246,     61250,  1801,   448,  3893,  2805,    32,  3308
       247,     61500,  1961,   357,  3825,  2951,    15,  3179
       248,     61750,  2121,   277,  3746,  3092,    11,  3042
       249,     62000,  2280,   208,  3656,  3226,    19,  2899
       250,     62250,  2439,   150,  3557,  3352,    40,  2752
       251,     62500,  2594,   104,  3448,  3471,    74,  2599
       252,     62750,  2747,    71,  3330,  3581,   119,  2444
       253,     63000,  2895,    49,  3205,  3682,   177,  2285
       254,     63250,  3038,    40,  3072,  3772,   246,  2126
       255,     63500,  3175,    43,  2932,  3852,   326,  1966
       256,     63750,  3305,    59,  2787,  3921,   417,  1806
       257,     64000,  3427,    88,  2638,  3978,   517,  1648
       258,     64250,  3540,   128,  2484,  4024,   628,  1492
       259,     64500,  3645,   181,  2328,  4057,   747,  1340
       260,     64750,  3740,   245,  2170,  4078,   874,  1192
       261,     65000,  3824,   320,  2011,  4086,  1008,  1050
       262,     65250,  3897,   406,  1852,  4081,  1149,   913
       263,     65500,  3959,   502,  1695,  4065,  1295,   784
       264,     65750,  4009,   608,  1539,  4035,  1446,   662
       265,     66000,  4047,   723,  1386,  3994,  1600,   549
       266,     66250,  4073,   846,  1237,  3940,  1758,   445
       267,     66500,  4086,   977,  1094,  3875,  1917,   351
       268,     66750,  4087,  1114,   955,  3799,  2077,   267
       269,     67000,  4075,  1258,   824,  3711,  2237,   195
       270,     67250,  4051,  1406,   700,  3614,  2395,   134
       271,     67500,  4014,  1558,   584,  3507,  2552,    84
       272,     67750,  3965,  1714,   477,  3390,  2705,    47
       273,     68000,  3905,  1872,   380,  3266,  2855,    22
       274,     68250,  3833,  2031,   293,  3134,  2999,    10
       275,     68500,  3750,  2190,   216,  2995,  3138,    10
       276,     68750,  3656,  2348,   151,  2851,  3270,    22
       277,     69000,  3553,  2505,    97,  2701,  3394,    48
       278,     69250,  3440,  2659,    55,  2548,  3510,    85
       279,     69500,  3319,  2809,    25,  2391,  3617,   135
       280,     69750,  3189,  2955,     8,  2232,  3714,   196
       281,     70000,  3053,  3095,     3,  2072,  3801,   269
       282,     70250,  2911,  3229,    11,  1912,  3878,   353
       283,     70500,  2763,  3355,    31,  1753,  3943,   447
       284,     70750,  2611,  3474,    63,  1596,  3996,   551
       285,     71000,  2456,  3584,   108,  1441,  4037,   665
       286,     71250,  2297,  3685,   164,  1290,  4066,   786
       287,     71500,  2138,  3776,   232,  1144,  4083,   916
       288,     71750,  1978,  3856,   311,  1003,  4087,  1053
       289,     72000,  1818,  3925,   401,   869,  4079,  1196
       290,     72250,  1660,  3983,   500,   742,  4058,  1344
       291,     72500,  1504,  4029,   609,   623,  4024,  1496
       292,     72750,  1351,  4062,   727,   513,  3979,  1652
       293,     73000,  1203,  4084,   853,   413,  3921,  1810
       294,     73250,  1060,  4093,   986,   322,  3852,  1970
       295,     73500,   923,  4090,  1126,   242,  3772,  2130
       296,     73750,   793,  4074,  1271,   173,  3681,  2290
       297,     74000,   671,  4045,  1421,   116,  3580,  2448
       298,     74250,   557,  4005,  1574,    71,  3470,  2604
       299,     74500,   452,  3952,  1731,    37,  3351,  2756
       300,     74750,   357,  3888,  1889,    17,  3223,  2905
       301,     75000,   273,  3813,  2048,     8,  3089,  3047
       302,     75250,   200,  3726,  2207,    13,  2948,  3184
